time	V(a0)	V(a1)	V(a2)	V(a3)	V(a4)	V(a5)	V(a6)	V(a7)	V(a8)	V(a9)	V(a10)	V(a11)	V(a12)	V(a13)	V(a14)	V(a15)	V(b0)	V(b1)	V(b2)	V(b3)	V(b4)	V(b5)	V(b6)	V(b7)	V(b8)	V(b9)	V(b10)	V(b11)	V(b12)	V(b13)	V(b14)	V(b15)	V(f0)	V(f1)	V(f2)	V(f3)	V(f4)	V(f5)	V(f6)	V(f7)	V(f8)	V(f9)	V(f10)	V(f11)	V(f12)	V(f13)	V(f14)	V(f15)	V(s0)	V(s1)
0.000000000000000e+000	0.000000e+000	0.000000e+000	0.000000e+000	0.000000e+000	0.000000e+000	0.000000e+000	0.000000e+000	0.000000e+000	0.000000e+000	0.000000e+000	0.000000e+000	0.000000e+000	0.000000e+000	0.000000e+000	0.000000e+000	0.000000e+000	0.000000e+000	0.000000e+000	0.000000e+000	0.000000e+000	0.000000e+000	0.000000e+000	0.000000e+000	0.000000e+000	0.000000e+000	0.000000e+000	0.000000e+000	0.000000e+000	0.000000e+000	0.000000e+000	0.000000e+000	0.000000e+000	5.997047e-009	5.997047e-009	5.997046e-009	5.997046e-009	5.997046e-009	5.997046e-009	5.997046e-009	5.997046e-009	5.997046e-009	5.997046e-009	5.997046e-009	5.997046e-009	5.997047e-009	5.997046e-009	5.997046e-009	5.997047e-009	0.000000e+000	0.000000e+000
2.000000000000000e-002	0.000000e+000	0.000000e+000	0.000000e+000	0.000000e+000	0.000000e+000	0.000000e+000	0.000000e+000	0.000000e+000	0.000000e+000	0.000000e+000	0.000000e+000	0.000000e+000	0.000000e+000	0.000000e+000	0.000000e+000	0.000000e+000	0.000000e+000	0.000000e+000	0.000000e+000	0.000000e+000	0.000000e+000	0.000000e+000	0.000000e+000	0.000000e+000	0.000000e+000	0.000000e+000	0.000000e+000	0.000000e+000	0.000000e+000	0.000000e+000	0.000000e+000	0.000000e+000	5.995389e-009	5.995389e-009	5.995389e-009	5.995389e-009	5.995389e-009	5.995389e-009	5.995389e-009	5.995389e-009	5.995389e-009	5.995389e-009	5.995389e-009	5.995389e-009	5.995389e-009	5.995389e-009	5.995389e-009	5.995389e-009	0.000000e+000	0.000000e+000
2.000000001603601e-002	0.000000e+000	0.000000e+000	0.000000e+000	0.000000e+000	0.000000e+000	0.000000e+000	0.000000e+000	0.000000e+000	0.000000e+000	0.000000e+000	0.000000e+000	0.000000e+000	0.000000e+000	0.000000e+000	0.000000e+000	0.000000e+000	0.000000e+000	0.000000e+000	0.000000e+000	0.000000e+000	0.000000e+000	0.000000e+000	0.000000e+000	0.000000e+000	0.000000e+000	0.000000e+000	0.000000e+000	0.000000e+000	0.000000e+000	0.000000e+000	0.000000e+000	0.000000e+000	3.794560e-004	3.794560e-004	3.794560e-004	3.794560e-004	3.794560e-004	3.794560e-004	3.794560e-004	3.794560e-004	3.794560e-004	3.794560e-004	3.794560e-004	3.794560e-004	3.794560e-004	3.794560e-004	3.794560e-004	3.794560e-004	8.018005e-002	0.000000e+000
2.000000004810803e-002	0.000000e+000	0.000000e+000	0.000000e+000	0.000000e+000	0.000000e+000	0.000000e+000	0.000000e+000	0.000000e+000	0.000000e+000	0.000000e+000	0.000000e+000	0.000000e+000	0.000000e+000	0.000000e+000	0.000000e+000	0.000000e+000	0.000000e+000	0.000000e+000	0.000000e+000	0.000000e+000	0.000000e+000	0.000000e+000	0.000000e+000	0.000000e+000	0.000000e+000	0.000000e+000	0.000000e+000	0.000000e+000	0.000000e+000	0.000000e+000	0.000000e+000	0.000000e+000	7.827160e-004	7.827160e-004	7.827160e-004	7.827160e-004	7.827160e-004	7.827160e-004	7.827160e-004	7.827160e-004	7.827160e-004	7.827160e-004	7.827160e-004	7.827160e-004	7.827160e-004	7.827160e-004	7.827160e-004	7.827160e-004	2.405402e-001	0.000000e+000
2.000000011225207e-002	0.000000e+000	0.000000e+000	0.000000e+000	0.000000e+000	0.000000e+000	0.000000e+000	0.000000e+000	0.000000e+000	0.000000e+000	0.000000e+000	0.000000e+000	0.000000e+000	0.000000e+000	0.000000e+000	0.000000e+000	0.000000e+000	0.000000e+000	0.000000e+000	0.000000e+000	0.000000e+000	0.000000e+000	0.000000e+000	0.000000e+000	0.000000e+000	0.000000e+000	0.000000e+000	0.000000e+000	0.000000e+000	0.000000e+000	0.000000e+000	0.000000e+000	0.000000e+000	9.279337e-004	9.279337e-004	9.279338e-004	9.279338e-004	9.279338e-004	9.279338e-004	9.279338e-004	9.279338e-004	9.279338e-004	9.279338e-004	9.279338e-004	9.279338e-004	9.279338e-004	9.279338e-004	9.279338e-004	9.279338e-004	5.612603e-001	0.000000e+000
2.000000017794467e-002	0.000000e+000	0.000000e+000	0.000000e+000	0.000000e+000	0.000000e+000	0.000000e+000	0.000000e+000	0.000000e+000	0.000000e+000	0.000000e+000	0.000000e+000	0.000000e+000	0.000000e+000	0.000000e+000	0.000000e+000	0.000000e+000	0.000000e+000	0.000000e+000	0.000000e+000	0.000000e+000	0.000000e+000	0.000000e+000	0.000000e+000	0.000000e+000	0.000000e+000	0.000000e+000	0.000000e+000	0.000000e+000	0.000000e+000	0.000000e+000	0.000000e+000	0.000000e+000	6.161080e-004	6.161080e-004	6.161077e-004	6.161077e-004	6.161077e-004	6.161077e-004	6.161077e-004	6.161077e-004	6.161077e-004	6.161077e-004	6.161077e-004	6.161077e-004	6.161077e-004	6.161077e-004	6.161077e-004	6.161077e-004	8.897234e-001	0.000000e+000
2.000000026104097e-002	0.000000e+000	0.000000e+000	0.000000e+000	0.000000e+000	0.000000e+000	0.000000e+000	0.000000e+000	0.000000e+000	0.000000e+000	0.000000e+000	0.000000e+000	0.000000e+000	0.000000e+000	0.000000e+000	0.000000e+000	0.000000e+000	0.000000e+000	0.000000e+000	0.000000e+000	0.000000e+000	0.000000e+000	0.000000e+000	0.000000e+000	0.000000e+000	0.000000e+000	0.000000e+000	0.000000e+000	0.000000e+000	0.000000e+000	0.000000e+000	0.000000e+000	0.000000e+000	-4.293078e-004	-4.293078e-004	-4.293091e-004	-4.293091e-004	-4.293091e-004	-4.293091e-004	-4.293091e-004	-4.293091e-004	-4.293091e-004	-4.293091e-004	-4.293091e-004	-4.293091e-004	-4.293091e-004	-4.293091e-004	-4.293091e-004	-4.293091e-004	1.305205e+000	0.000000e+000
2.000000033879859e-002	0.000000e+000	0.000000e+000	0.000000e+000	0.000000e+000	0.000000e+000	0.000000e+000	0.000000e+000	0.000000e+000	0.000000e+000	0.000000e+000	0.000000e+000	0.000000e+000	0.000000e+000	0.000000e+000	0.000000e+000	0.000000e+000	0.000000e+000	0.000000e+000	0.000000e+000	0.000000e+000	0.000000e+000	0.000000e+000	0.000000e+000	0.000000e+000	0.000000e+000	0.000000e+000	0.000000e+000	0.000000e+000	0.000000e+000	0.000000e+000	0.000000e+000	0.000000e+000	-1.622382e-003	-1.622382e-003	-1.622387e-003	-1.622387e-003	-1.622387e-003	-1.622387e-003	-1.622387e-003	-1.622387e-003	-1.622387e-003	-1.622387e-003	-1.622387e-003	-1.622387e-003	-1.622387e-003	-1.622387e-003	-1.622387e-003	-1.622387e-003	1.693993e+000	0.000000e+000
2.000000042318254e-002	0.000000e+000	0.000000e+000	0.000000e+000	0.000000e+000	0.000000e+000	0.000000e+000	0.000000e+000	0.000000e+000	0.000000e+000	0.000000e+000	0.000000e+000	0.000000e+000	0.000000e+000	0.000000e+000	0.000000e+000	0.000000e+000	0.000000e+000	0.000000e+000	0.000000e+000	0.000000e+000	0.000000e+000	0.000000e+000	0.000000e+000	0.000000e+000	0.000000e+000	0.000000e+000	0.000000e+000	0.000000e+000	0.000000e+000	0.000000e+000	0.000000e+000	0.000000e+000	-2.137410e-003	-2.137410e-003	-2.137423e-003	-2.137423e-003	-2.137423e-003	-2.137423e-003	-2.137423e-003	-2.137423e-003	-2.137423e-003	-2.137423e-003	-2.137423e-003	-2.137423e-003	-2.137423e-003	-2.137423e-003	-2.137423e-003	-2.137423e-003	2.115913e+000	0.000000e+000
2.000000045832875e-002	0.000000e+000	0.000000e+000	0.000000e+000	0.000000e+000	0.000000e+000	0.000000e+000	0.000000e+000	0.000000e+000	0.000000e+000	0.000000e+000	0.000000e+000	0.000000e+000	0.000000e+000	0.000000e+000	0.000000e+000	0.000000e+000	0.000000e+000	0.000000e+000	0.000000e+000	0.000000e+000	0.000000e+000	0.000000e+000	0.000000e+000	0.000000e+000	0.000000e+000	0.000000e+000	0.000000e+000	0.000000e+000	0.000000e+000	0.000000e+000	0.000000e+000	0.000000e+000	-1.517614e-003	-1.517614e-003	-1.517629e-003	-1.517629e-003	-1.517629e-003	-1.517629e-003	-1.517629e-003	-1.517629e-003	-1.517629e-003	-1.517629e-003	-1.517629e-003	-1.517629e-003	-1.517629e-003	-1.517629e-003	-1.517629e-003	-1.517629e-003	2.291644e+000	0.000000e+000
2.000000048878792e-002	0.000000e+000	0.000000e+000	0.000000e+000	0.000000e+000	0.000000e+000	0.000000e+000	0.000000e+000	0.000000e+000	0.000000e+000	0.000000e+000	0.000000e+000	0.000000e+000	0.000000e+000	0.000000e+000	0.000000e+000	0.000000e+000	0.000000e+000	0.000000e+000	0.000000e+000	0.000000e+000	0.000000e+000	0.000000e+000	0.000000e+000	0.000000e+000	0.000000e+000	0.000000e+000	0.000000e+000	0.000000e+000	0.000000e+000	0.000000e+000	0.000000e+000	0.000000e+000	-5.102859e-004	-5.102859e-004	-5.102982e-004	-5.102982e-004	-5.102982e-004	-5.102982e-004	-5.102982e-004	-5.102982e-004	-5.102982e-004	-5.102982e-004	-5.102982e-004	-5.102982e-004	-5.102982e-004	-5.102982e-004	-5.102982e-004	-5.102982e-004	2.443940e+000	0.000000e+000
2.000000052949569e-002	0.000000e+000	0.000000e+000	0.000000e+000	0.000000e+000	0.000000e+000	0.000000e+000	0.000000e+000	0.000000e+000	0.000000e+000	0.000000e+000	0.000000e+000	0.000000e+000	0.000000e+000	0.000000e+000	0.000000e+000	0.000000e+000	0.000000e+000	0.000000e+000	0.000000e+000	0.000000e+000	0.000000e+000	0.000000e+000	0.000000e+000	0.000000e+000	0.000000e+000	0.000000e+000	0.000000e+000	0.000000e+000	0.000000e+000	0.000000e+000	0.000000e+000	0.000000e+000	5.258568e-004	5.258568e-004	5.258519e-004	5.258519e-004	5.258519e-004	5.258519e-004	5.258519e-004	5.258519e-004	5.258519e-004	5.258519e-004	5.258519e-004	5.258519e-004	5.258519e-004	5.258519e-004	5.258519e-004	5.258519e-004	2.647478e+000	0.000000e+000
2.000000056586037e-002	0.000000e+000	0.000000e+000	0.000000e+000	0.000000e+000	0.000000e+000	0.000000e+000	0.000000e+000	0.000000e+000	0.000000e+000	0.000000e+000	0.000000e+000	0.000000e+000	0.000000e+000	0.000000e+000	0.000000e+000	0.000000e+000	0.000000e+000	0.000000e+000	0.000000e+000	0.000000e+000	0.000000e+000	0.000000e+000	0.000000e+000	0.000000e+000	0.000000e+000	0.000000e+000	0.000000e+000	0.000000e+000	0.000000e+000	0.000000e+000	0.000000e+000	0.000000e+000	9.246962e-004	9.246962e-004	9.246959e-004	9.246959e-004	9.246959e-004	9.246959e-004	9.246959e-004	9.246959e-004	9.246959e-004	9.246959e-004	9.246959e-004	9.246959e-004	9.246959e-004	9.246959e-004	9.246959e-004	9.246959e-004	2.829302e+000	0.000000e+000
2.000000061797021e-002	0.000000e+000	0.000000e+000	0.000000e+000	0.000000e+000	0.000000e+000	0.000000e+000	0.000000e+000	0.000000e+000	0.000000e+000	0.000000e+000	0.000000e+000	0.000000e+000	0.000000e+000	0.000000e+000	0.000000e+000	0.000000e+000	0.000000e+000	0.000000e+000	0.000000e+000	0.000000e+000	0.000000e+000	0.000000e+000	0.000000e+000	0.000000e+000	0.000000e+000	0.000000e+000	0.000000e+000	0.000000e+000	0.000000e+000	0.000000e+000	0.000000e+000	0.000000e+000	9.807677e-004	9.807677e-004	9.807697e-004	9.807697e-004	9.807697e-004	9.807697e-004	9.807697e-004	9.807697e-004	9.807697e-004	9.807697e-004	9.807697e-004	9.807697e-004	9.807697e-004	9.807697e-004	9.807697e-004	9.807697e-004	3.089851e+000	0.000000e+000
2.000000066934666e-002	0.000000e+000	0.000000e+000	0.000000e+000	0.000000e+000	0.000000e+000	0.000000e+000	0.000000e+000	0.000000e+000	0.000000e+000	0.000000e+000	0.000000e+000	0.000000e+000	0.000000e+000	0.000000e+000	0.000000e+000	0.000000e+000	0.000000e+000	0.000000e+000	0.000000e+000	0.000000e+000	0.000000e+000	0.000000e+000	0.000000e+000	0.000000e+000	0.000000e+000	0.000000e+000	0.000000e+000	0.000000e+000	0.000000e+000	0.000000e+000	0.000000e+000	0.000000e+000	8.621331e-004	8.621331e-004	8.621355e-004	8.621355e-004	8.621355e-004	8.621355e-004	8.621355e-004	8.621355e-004	8.621355e-004	8.621355e-004	8.621355e-004	8.621355e-004	8.621355e-004	8.621355e-004	8.621355e-004	8.621355e-004	3.346733e+000	0.000000e+000
2.000000076603177e-002	0.000000e+000	0.000000e+000	0.000000e+000	0.000000e+000	0.000000e+000	0.000000e+000	0.000000e+000	0.000000e+000	0.000000e+000	0.000000e+000	0.000000e+000	0.000000e+000	0.000000e+000	0.000000e+000	0.000000e+000	0.000000e+000	0.000000e+000	0.000000e+000	0.000000e+000	0.000000e+000	0.000000e+000	0.000000e+000	0.000000e+000	0.000000e+000	0.000000e+000	0.000000e+000	0.000000e+000	0.000000e+000	0.000000e+000	0.000000e+000	0.000000e+000	0.000000e+000	5.803068e-004	5.803068e-004	5.803086e-004	5.803086e-004	5.803086e-004	5.803086e-004	5.803086e-004	5.803086e-004	5.803086e-004	5.803086e-004	5.803086e-004	5.803086e-004	5.803086e-004	5.803086e-004	5.803086e-004	5.803086e-004	3.830159e+000	0.000000e+000
2.000000086074972e-002	0.000000e+000	0.000000e+000	0.000000e+000	0.000000e+000	0.000000e+000	0.000000e+000	0.000000e+000	0.000000e+000	0.000000e+000	0.000000e+000	0.000000e+000	0.000000e+000	0.000000e+000	0.000000e+000	0.000000e+000	0.000000e+000	0.000000e+000	0.000000e+000	0.000000e+000	0.000000e+000	0.000000e+000	0.000000e+000	0.000000e+000	0.000000e+000	0.000000e+000	0.000000e+000	0.000000e+000	0.000000e+000	0.000000e+000	0.000000e+000	0.000000e+000	0.000000e+000	3.086324e-004	3.086324e-004	3.086339e-004	3.086339e-004	3.086339e-004	3.086339e-004	3.086339e-004	3.086339e-004	3.086339e-004	3.086339e-004	3.086339e-004	3.086339e-004	3.086339e-004	3.086339e-004	3.086339e-004	3.086339e-004	4.303749e+000	0.000000e+000
2.000000096262941e-002	0.000000e+000	0.000000e+000	0.000000e+000	0.000000e+000	0.000000e+000	0.000000e+000	0.000000e+000	0.000000e+000	0.000000e+000	0.000000e+000	0.000000e+000	0.000000e+000	0.000000e+000	0.000000e+000	0.000000e+000	0.000000e+000	0.000000e+000	0.000000e+000	0.000000e+000	0.000000e+000	0.000000e+000	0.000000e+000	0.000000e+000	0.000000e+000	0.000000e+000	0.000000e+000	0.000000e+000	0.000000e+000	0.000000e+000	0.000000e+000	0.000000e+000	0.000000e+000	8.033898e-005	8.033898e-005	8.034077e-005	8.034077e-005	8.034077e-005	8.034077e-005	8.034077e-005	8.034077e-005	8.034077e-005	8.034077e-005	8.034077e-005	8.034077e-005	8.034077e-005	8.034077e-005	8.034077e-005	8.034077e-005	4.813147e+000	0.000000e+000
2.000000100000000e-002	0.000000e+000	0.000000e+000	0.000000e+000	0.000000e+000	0.000000e+000	0.000000e+000	0.000000e+000	0.000000e+000	0.000000e+000	0.000000e+000	0.000000e+000	0.000000e+000	0.000000e+000	0.000000e+000	0.000000e+000	0.000000e+000	0.000000e+000	0.000000e+000	0.000000e+000	0.000000e+000	0.000000e+000	0.000000e+000	0.000000e+000	0.000000e+000	0.000000e+000	0.000000e+000	0.000000e+000	0.000000e+000	0.000000e+000	0.000000e+000	0.000000e+000	0.000000e+000	1.058807e-004	1.058807e-004	1.058828e-004	1.058828e-004	1.058828e-004	1.058828e-004	1.058828e-004	1.058828e-004	1.058828e-004	1.058828e-004	1.058828e-004	1.058828e-004	1.058828e-004	1.058828e-004	1.058828e-004	1.058828e-004	5.000000e+000	0.000000e+000
2.000000100269950e-002	0.000000e+000	0.000000e+000	0.000000e+000	0.000000e+000	0.000000e+000	0.000000e+000	0.000000e+000	0.000000e+000	0.000000e+000	0.000000e+000	0.000000e+000	0.000000e+000	0.000000e+000	0.000000e+000	0.000000e+000	0.000000e+000	0.000000e+000	0.000000e+000	0.000000e+000	0.000000e+000	0.000000e+000	0.000000e+000	0.000000e+000	0.000000e+000	0.000000e+000	0.000000e+000	0.000000e+000	0.000000e+000	0.000000e+000	0.000000e+000	0.000000e+000	0.000000e+000	-5.112437e-005	-5.112437e-005	-5.112228e-005	-5.112228e-005	-5.112228e-005	-5.112228e-005	-5.112228e-005	-5.112228e-005	-5.112228e-005	-5.112228e-005	-5.112228e-005	-5.112228e-005	-5.112228e-005	-5.112228e-005	-5.112228e-005	-5.112228e-005	5.000000e+000	0.000000e+000
2.000000100809849e-002	0.000000e+000	0.000000e+000	0.000000e+000	0.000000e+000	0.000000e+000	0.000000e+000	0.000000e+000	0.000000e+000	0.000000e+000	0.000000e+000	0.000000e+000	0.000000e+000	0.000000e+000	0.000000e+000	0.000000e+000	0.000000e+000	0.000000e+000	0.000000e+000	0.000000e+000	0.000000e+000	0.000000e+000	0.000000e+000	0.000000e+000	0.000000e+000	0.000000e+000	0.000000e+000	0.000000e+000	0.000000e+000	0.000000e+000	0.000000e+000	0.000000e+000	0.000000e+000	-3.085746e-004	-3.085746e-004	-3.085725e-004	-3.085725e-004	-3.085725e-004	-3.085725e-004	-3.085725e-004	-3.085725e-004	-3.085725e-004	-3.085725e-004	-3.085725e-004	-3.085725e-004	-3.085725e-004	-3.085725e-004	-3.085725e-004	-3.085725e-004	5.000000e+000	0.000000e+000
2.000000101889647e-002	0.000000e+000	0.000000e+000	0.000000e+000	0.000000e+000	0.000000e+000	0.000000e+000	0.000000e+000	0.000000e+000	0.000000e+000	0.000000e+000	0.000000e+000	0.000000e+000	0.000000e+000	0.000000e+000	0.000000e+000	0.000000e+000	0.000000e+000	0.000000e+000	0.000000e+000	0.000000e+000	0.000000e+000	0.000000e+000	0.000000e+000	0.000000e+000	0.000000e+000	0.000000e+000	0.000000e+000	0.000000e+000	0.000000e+000	0.000000e+000	0.000000e+000	0.000000e+000	-6.253530e-004	-6.253530e-004	-6.253511e-004	-6.253511e-004	-6.253511e-004	-6.253511e-004	-6.253511e-004	-6.253511e-004	-6.253511e-004	-6.253511e-004	-6.253511e-004	-6.253511e-004	-6.253511e-004	-6.253511e-004	-6.253511e-004	-6.253511e-004	5.000000e+000	0.000000e+000
2.000000104049243e-002	0.000000e+000	0.000000e+000	0.000000e+000	0.000000e+000	0.000000e+000	0.000000e+000	0.000000e+000	0.000000e+000	0.000000e+000	0.000000e+000	0.000000e+000	0.000000e+000	0.000000e+000	0.000000e+000	0.000000e+000	0.000000e+000	0.000000e+000	0.000000e+000	0.000000e+000	0.000000e+000	0.000000e+000	0.000000e+000	0.000000e+000	0.000000e+000	0.000000e+000	0.000000e+000	0.000000e+000	0.000000e+000	0.000000e+000	0.000000e+000	0.000000e+000	0.000000e+000	-8.793212e-004	-8.793212e-004	-8.793196e-004	-8.793196e-004	-8.793196e-004	-8.793196e-004	-8.793196e-004	-8.793196e-004	-8.793196e-004	-8.793196e-004	-8.793196e-004	-8.793196e-004	-8.793196e-004	-8.793196e-004	-8.793196e-004	-8.793196e-004	5.000000e+000	0.000000e+000
2.000000108368435e-002	0.000000e+000	0.000000e+000	0.000000e+000	0.000000e+000	0.000000e+000	0.000000e+000	0.000000e+000	0.000000e+000	0.000000e+000	0.000000e+000	0.000000e+000	0.000000e+000	0.000000e+000	0.000000e+000	0.000000e+000	0.000000e+000	0.000000e+000	0.000000e+000	0.000000e+000	0.000000e+000	0.000000e+000	0.000000e+000	0.000000e+000	0.000000e+000	0.000000e+000	0.000000e+000	0.000000e+000	0.000000e+000	0.000000e+000	0.000000e+000	0.000000e+000	0.000000e+000	-9.496763e-004	-9.496763e-004	-9.496746e-004	-9.496746e-004	-9.496746e-004	-9.496746e-004	-9.496746e-004	-9.496746e-004	-9.496746e-004	-9.496746e-004	-9.496746e-004	-9.496746e-004	-9.496746e-004	-9.496746e-004	-9.496746e-004	-9.496746e-004	5.000000e+000	0.000000e+000
2.000000116465915e-002	0.000000e+000	0.000000e+000	0.000000e+000	0.000000e+000	0.000000e+000	0.000000e+000	0.000000e+000	0.000000e+000	0.000000e+000	0.000000e+000	0.000000e+000	0.000000e+000	0.000000e+000	0.000000e+000	0.000000e+000	0.000000e+000	0.000000e+000	0.000000e+000	0.000000e+000	0.000000e+000	0.000000e+000	0.000000e+000	0.000000e+000	0.000000e+000	0.000000e+000	0.000000e+000	0.000000e+000	0.000000e+000	0.000000e+000	0.000000e+000	0.000000e+000	0.000000e+000	-8.261161e-004	-8.261161e-004	-8.261144e-004	-8.261144e-004	-8.261144e-004	-8.261144e-004	-8.261144e-004	-8.261144e-004	-8.261144e-004	-8.261144e-004	-8.261144e-004	-8.261144e-004	-8.261144e-004	-8.261144e-004	-8.261144e-004	-8.261144e-004	5.000000e+000	0.000000e+000
2.000000129025774e-002	0.000000e+000	0.000000e+000	0.000000e+000	0.000000e+000	0.000000e+000	0.000000e+000	0.000000e+000	0.000000e+000	0.000000e+000	0.000000e+000	0.000000e+000	0.000000e+000	0.000000e+000	0.000000e+000	0.000000e+000	0.000000e+000	0.000000e+000	0.000000e+000	0.000000e+000	0.000000e+000	0.000000e+000	0.000000e+000	0.000000e+000	0.000000e+000	0.000000e+000	0.000000e+000	0.000000e+000	0.000000e+000	0.000000e+000	0.000000e+000	0.000000e+000	0.000000e+000	-5.859255e-004	-5.859255e-004	-5.859239e-004	-5.859239e-004	-5.859239e-004	-5.859239e-004	-5.859239e-004	-5.859239e-004	-5.859239e-004	-5.859239e-004	-5.859239e-004	-5.859239e-004	-5.859239e-004	-5.859239e-004	-5.859239e-004	-5.859239e-004	5.000000e+000	0.000000e+000
