time	V(a0)	V(a1)	V(a2)	V(a3)	V(a4)	V(a5)	V(a6)	V(a7)	V(a8)	V(a9)	V(a10)	V(a11)	V(a12)	V(a13)	V(a14)	V(a15)	V(f0)	V(f1)	V(f2)	V(f3)	V(f4)	V(f5)	V(f6)	V(f7)	V(f8)	V(f9)	V(f10)	V(f11)	V(f12)	V(f13)	V(f14)	V(f15)
0.000000000000000e+000	0.000000e+000	0.000000e+000	0.000000e+000	0.000000e+000	0.000000e+000	0.000000e+000	0.000000e+000	0.000000e+000	0.000000e+000	0.000000e+000	0.000000e+000	0.000000e+000	0.000000e+000	0.000000e+000	0.000000e+000	0.000000e+000	5.000000e+000	5.000000e+000	5.000000e+000	5.000000e+000	5.000000e+000	5.000000e+000	5.000000e+000	5.000000e+000	5.000000e+000	5.000000e+000	5.000000e+000	5.000000e+000	5.000000e+000	5.000000e+000	5.000000e+000	5.000000e+000
1.102776250059827e-002	0.000000e+000	0.000000e+000	0.000000e+000	0.000000e+000	0.000000e+000	0.000000e+000	0.000000e+000	0.000000e+000	0.000000e+000	0.000000e+000	0.000000e+000	0.000000e+000	0.000000e+000	0.000000e+000	0.000000e+000	0.000000e+000	5.000000e+000	5.000000e+000	5.000000e+000	5.000000e+000	5.000000e+000	5.000000e+000	5.000000e+000	5.000000e+000	5.000000e+000	5.000000e+000	5.000000e+000	5.000000e+000	5.000000e+000	5.000000e+000	5.000000e+000	5.000000e+000
1.999993600002390e-002	0.000000e+000	0.000000e+000	0.000000e+000	0.000000e+000	0.000000e+000	0.000000e+000	0.000000e+000	0.000000e+000	0.000000e+000	0.000000e+000	0.000000e+000	0.000000e+000	0.000000e+000	0.000000e+000	0.000000e+000	0.000000e+000	5.000000e+000	5.000000e+000	5.000000e+000	5.000000e+000	5.000000e+000	5.000000e+000	5.000000e+000	5.000000e+000	5.000000e+000	5.000000e+000	5.000000e+000	5.000000e+000	5.000000e+000	5.000000e+000	5.000000e+000	5.000000e+000
2.000000000000000e-002	0.000000e+000	0.000000e+000	0.000000e+000	0.000000e+000	0.000000e+000	0.000000e+000	0.000000e+000	0.000000e+000	0.000000e+000	0.000000e+000	0.000000e+000	0.000000e+000	0.000000e+000	0.000000e+000	0.000000e+000	0.000000e+000	5.000000e+000	5.000000e+000	5.000000e+000	5.000000e+000	5.000000e+000	5.000000e+000	5.000000e+000	5.000000e+000	5.000000e+000	5.000000e+000	5.000000e+000	5.000000e+000	5.000000e+000	5.000000e+000	5.000000e+000	5.000000e+000
2.000000000216710e-002	1.083548e-002	1.083548e-002	1.083548e-002	1.083548e-002	1.083548e-002	1.083548e-002	1.083548e-002	1.083548e-002	1.083548e-002	1.083548e-002	1.083548e-002	1.083548e-002	1.083548e-002	1.083548e-002	1.083548e-002	1.083548e-002	5.003159e+000	5.003159e+000	5.003159e+000	5.003159e+000	5.003159e+000	5.003159e+000	5.003159e+000	5.003159e+000	5.003159e+000	5.003159e+000	5.003159e+000	5.003159e+000	5.003159e+000	5.003159e+000	5.003159e+000	5.003159e+000
2.000000000650129e-002	3.250644e-002	3.250644e-002	3.250644e-002	3.250644e-002	3.250644e-002	3.250644e-002	3.250644e-002	3.250644e-002	3.250644e-002	3.250644e-002	3.250644e-002	3.250644e-002	3.250644e-002	3.250644e-002	3.250644e-002	3.250644e-002	5.008695e+000	5.008695e+000	5.008695e+000	5.008695e+000	5.008695e+000	5.008695e+000	5.008695e+000	5.008695e+000	5.008695e+000	5.008695e+000	5.008695e+000	5.008695e+000	5.008695e+000	5.008695e+000	5.008695e+000	5.008695e+000
2.000000001516968e-002	7.584839e-002	7.584839e-002	7.584839e-002	7.584839e-002	7.584839e-002	7.584839e-002	7.584839e-002	7.584839e-002	7.584839e-002	7.584839e-002	7.584839e-002	7.584839e-002	7.584839e-002	7.584839e-002	7.584839e-002	7.584839e-002	5.016866e+000	5.016866e+000	5.016866e+000	5.016866e+000	5.016866e+000	5.016866e+000	5.016866e+000	5.016866e+000	5.016866e+000	5.016866e+000	5.016866e+000	5.016866e+000	5.016866e+000	5.016866e+000	5.016866e+000	5.016866e+000
2.000000003250646e-002	1.625323e-001	1.625323e-001	1.625323e-001	1.625323e-001	1.625323e-001	1.625323e-001	1.625323e-001	1.625323e-001	1.625323e-001	1.625323e-001	1.625323e-001	1.625323e-001	1.625323e-001	1.625323e-001	1.625323e-001	1.625323e-001	5.026304e+000	5.026304e+000	5.026304e+000	5.026304e+000	5.026304e+000	5.026304e+000	5.026304e+000	5.026304e+000	5.026304e+000	5.026304e+000	5.026304e+000	5.026304e+000	5.026304e+000	5.026304e+000	5.026304e+000	5.026304e+000
2.000000006718001e-002	3.359000e-001	3.359000e-001	3.359000e-001	3.359000e-001	3.359000e-001	3.359000e-001	3.359000e-001	3.359000e-001	3.359000e-001	3.359000e-001	3.359000e-001	3.359000e-001	3.359000e-001	3.359000e-001	3.359000e-001	3.359000e-001	5.034316e+000	5.034316e+000	5.034316e+000	5.034316e+000	5.034316e+000	5.034316e+000	5.034316e+000	5.034316e+000	5.034316e+000	5.034316e+000	5.034316e+000	5.034316e+000	5.034316e+000	5.034316e+000	5.034316e+000	5.034316e+000
2.000000011893435e-002	5.946718e-001	5.946718e-001	5.946718e-001	5.946718e-001	5.946718e-001	5.946718e-001	5.946718e-001	5.946718e-001	5.946718e-001	5.946718e-001	5.946718e-001	5.946718e-001	5.946718e-001	5.946718e-001	5.946718e-001	5.946718e-001	5.036133e+000	5.036133e+000	5.036133e+000	5.036133e+000	5.036133e+000	5.036133e+000	5.036133e+000	5.036133e+000	5.036133e+000	5.036133e+000	5.036133e+000	5.036133e+000	5.036133e+000	5.036133e+000	5.036133e+000	5.036133e+000
2.000000019185174e-002	9.592587e-001	9.592587e-001	9.592587e-001	9.592587e-001	9.592587e-001	9.592587e-001	9.592587e-001	9.592587e-001	9.592587e-001	9.592587e-001	9.592587e-001	9.592587e-001	9.592587e-001	9.592587e-001	9.592587e-001	9.592587e-001	5.013008e+000	5.013008e+000	5.013008e+000	5.013008e+000	5.013008e+000	5.013008e+000	5.013008e+000	5.013008e+000	5.013008e+000	5.013008e+000	5.013008e+000	5.013008e+000	5.013008e+000	5.013008e+000	5.013008e+000	5.013008e+000
2.000000026376362e-002	1.318818e+000	1.318818e+000	1.318818e+000	1.318818e+000	1.318818e+000	1.318818e+000	1.318818e+000	1.318818e+000	1.318818e+000	1.318818e+000	1.318818e+000	1.318818e+000	1.318818e+000	1.318818e+000	1.318818e+000	1.318818e+000	4.934896e+000	4.934896e+000	4.934896e+000	4.934896e+000	4.934896e+000	4.934896e+000	4.934896e+000	4.934896e+000	4.934896e+000	4.934896e+000	4.934896e+000	4.934896e+000	4.934896e+000	4.934896e+000	4.934896e+000	4.934896e+000
2.000000034074766e-002	1.703738e+000	1.703738e+000	1.703738e+000	1.703738e+000	1.703738e+000	1.703738e+000	1.703738e+000	1.703738e+000	1.703738e+000	1.703738e+000	1.703738e+000	1.703738e+000	1.703738e+000	1.703738e+000	1.703738e+000	1.703738e+000	4.737610e+000	4.737610e+000	4.737610e+000	4.737610e+000	4.737610e+000	4.737610e+000	4.737610e+000	4.737610e+000	4.737610e+000	4.737610e+000	4.737610e+000	4.737610e+000	4.737610e+000	4.737610e+000	4.737610e+000	4.737610e+000
2.000000049471576e-002	2.473579e+000	2.473579e+000	2.473579e+000	2.473579e+000	2.473579e+000	2.473579e+000	2.473579e+000	2.473579e+000	2.473579e+000	2.473579e+000	2.473579e+000	2.473579e+000	2.473579e+000	2.473579e+000	2.473579e+000	2.473579e+000	3.946171e+000	3.946171e+000	3.946171e+000	3.946171e+000	3.946171e+000	3.946171e+000	3.946171e+000	3.946171e+000	3.946171e+000	3.946171e+000	3.946171e+000	3.946171e+000	3.946171e+000	3.946171e+000	3.946171e+000	3.946171e+000
2.000000056410256e-002	2.820513e+000	2.820513e+000	2.820513e+000	2.820513e+000	2.820513e+000	2.820513e+000	2.820513e+000	2.820513e+000	2.820513e+000	2.820513e+000	2.820513e+000	2.820513e+000	2.820513e+000	2.820513e+000	2.820513e+000	2.820513e+000	3.136098e+000	3.136098e+000	3.136098e+000	3.136098e+000	3.136098e+000	3.136098e+000	3.136098e+000	3.136098e+000	3.136098e+000	3.136098e+000	3.136098e+000	3.136098e+000	3.136098e+000	3.136098e+000	3.136098e+000	3.136098e+000
2.000000061538899e-002	3.076945e+000	3.076945e+000	3.076945e+000	3.076945e+000	3.076945e+000	3.076945e+000	3.076945e+000	3.076945e+000	3.076945e+000	3.076945e+000	3.076945e+000	3.076945e+000	3.076945e+000	3.076945e+000	3.076945e+000	3.076945e+000	2.079278e+000	2.079278e+000	2.079278e+000	2.079278e+000	2.079278e+000	2.079278e+000	2.079278e+000	2.079278e+000	2.079278e+000	2.079278e+000	2.079278e+000	2.079278e+000	2.079278e+000	2.079278e+000	2.079278e+000	2.079278e+000
2.000000065836390e-002	3.291820e+000	3.291820e+000	3.291820e+000	3.291820e+000	3.291820e+000	3.291820e+000	3.291820e+000	3.291820e+000	3.291820e+000	3.291820e+000	3.291820e+000	3.291820e+000	3.291820e+000	3.291820e+000	3.291820e+000	3.291820e+000	1.014735e+000	1.014735e+000	1.014735e+000	1.014735e+000	1.014735e+000	1.014735e+000	1.014735e+000	1.014735e+000	1.014735e+000	1.014735e+000	1.014735e+000	1.014735e+000	1.014735e+000	1.014735e+000	1.014735e+000	1.014735e+000
2.000000067678963e-002	3.383948e+000	3.383948e+000	3.383948e+000	3.383948e+000	3.383948e+000	3.383948e+000	3.383948e+000	3.383948e+000	3.383948e+000	3.383948e+000	3.383948e+000	3.383948e+000	3.383948e+000	3.383948e+000	3.383948e+000	3.383948e+000	6.364942e-001	6.364942e-001	6.364942e-001	6.364942e-001	6.364942e-001	6.364942e-001	6.364942e-001	6.364942e-001	6.364942e-001	6.364942e-001	6.364942e-001	6.364942e-001	6.364942e-001	6.364942e-001	6.364942e-001	6.364942e-001
2.000000069416437e-002	3.470822e+000	3.470822e+000	3.470822e+000	3.470822e+000	3.470822e+000	3.470822e+000	3.470822e+000	3.470822e+000	3.470822e+000	3.470822e+000	3.470822e+000	3.470822e+000	3.470822e+000	3.470822e+000	3.470822e+000	3.470822e+000	4.180228e-001	4.180228e-001	4.180228e-001	4.180228e-001	4.180228e-001	4.180228e-001	4.180228e-001	4.180228e-001	4.180228e-001	4.180228e-001	4.180228e-001	4.180228e-001	4.180228e-001	4.180228e-001	4.180228e-001	4.180228e-001
2.000000071476708e-002	3.573835e+000	3.573835e+000	3.573835e+000	3.573835e+000	3.573835e+000	3.573835e+000	3.573835e+000	3.573835e+000	3.573835e+000	3.573835e+000	3.573835e+000	3.573835e+000	3.573835e+000	3.573835e+000	3.573835e+000	3.573835e+000	2.735636e-001	2.735636e-001	2.735636e-001	2.735636e-001	2.735636e-001	2.735636e-001	2.735636e-001	2.735636e-001	2.735636e-001	2.735636e-001	2.735636e-001	2.735636e-001	2.735636e-001	2.735636e-001	2.735636e-001	2.735636e-001
2.000000073841417e-002	3.692071e+000	3.692071e+000	3.692071e+000	3.692071e+000	3.692071e+000	3.692071e+000	3.692071e+000	3.692071e+000	3.692071e+000	3.692071e+000	3.692071e+000	3.692071e+000	3.692071e+000	3.692071e+000	3.692071e+000	3.692071e+000	1.811720e-001	1.811720e-001	1.811720e-001	1.811720e-001	1.811720e-001	1.811720e-001	1.811720e-001	1.811720e-001	1.811720e-001	1.811720e-001	1.811720e-001	1.811720e-001	1.811720e-001	1.811720e-001	1.811720e-001	1.811720e-001
2.000000076398772e-002	3.819939e+000	3.819939e+000	3.819939e+000	3.819939e+000	3.819939e+000	3.819939e+000	3.819939e+000	3.819939e+000	3.819939e+000	3.819939e+000	3.819939e+000	3.819939e+000	3.819939e+000	3.819939e+000	3.819939e+000	3.819939e+000	1.231553e-001	1.231553e-001	1.231553e-001	1.231553e-001	1.231553e-001	1.231553e-001	1.231553e-001	1.231553e-001	1.231553e-001	1.231553e-001	1.231553e-001	1.231553e-001	1.231553e-001	1.231553e-001	1.231553e-001	1.231553e-001
2.000000079686916e-002	3.984346e+000	3.984346e+000	3.984346e+000	3.984346e+000	3.984346e+000	3.984346e+000	3.984346e+000	3.984346e+000	3.984346e+000	3.984346e+000	3.984346e+000	3.984346e+000	3.984346e+000	3.984346e+000	3.984346e+000	3.984346e+000	7.807285e-002	7.807285e-002	7.807285e-002	7.807285e-002	7.807285e-002	7.807285e-002	7.807285e-002	7.807285e-002	7.807285e-002	7.807285e-002	7.807285e-002	7.807285e-002	7.807285e-002	7.807285e-002	7.807285e-002	7.807285e-002
2.000000084390998e-002	4.219550e+000	4.219550e+000	4.219550e+000	4.219550e+000	4.219550e+000	4.219550e+000	4.219550e+000	4.219550e+000	4.219550e+000	4.219550e+000	4.219550e+000	4.219550e+000	4.219550e+000	4.219550e+000	4.219550e+000	4.219550e+000	4.243410e-002	4.243410e-002	4.243410e-002	4.243410e-002	4.243410e-002	4.243410e-002	4.243410e-002	4.243410e-002	4.243410e-002	4.243410e-002	4.243410e-002	4.243410e-002	4.243410e-002	4.243410e-002	4.243410e-002	4.243410e-002
2.000000090086010e-002	4.504301e+000	4.504301e+000	4.504301e+000	4.504301e+000	4.504301e+000	4.504301e+000	4.504301e+000	4.504301e+000	4.504301e+000	4.504301e+000	4.504301e+000	4.504301e+000	4.504301e+000	4.504301e+000	4.504301e+000	4.504301e+000	2.511895e-002	2.511895e-002	2.511895e-002	2.511895e-002	2.511895e-002	2.511895e-002	2.511895e-002	2.511895e-002	2.511895e-002	2.511895e-002	2.511895e-002	2.511895e-002	2.511895e-002	2.511895e-002	2.511895e-002	2.511895e-002
2.000000094704554e-002	4.735228e+000	4.735228e+000	4.735228e+000	4.735228e+000	4.735228e+000	4.735228e+000	4.735228e+000	4.735228e+000	4.735228e+000	4.735228e+000	4.735228e+000	4.735228e+000	4.735228e+000	4.735228e+000	4.735228e+000	4.735228e+000	2.255541e-002	2.255541e-002	2.255541e-002	2.255541e-002	2.255541e-002	2.255541e-002	2.255541e-002	2.255541e-002	2.255541e-002	2.255541e-002	2.255541e-002	2.255541e-002	2.255541e-002	2.255541e-002	2.255541e-002	2.255541e-002
2.000000100000000e-002	5.000000e+000	5.000000e+000	5.000000e+000	5.000000e+000	5.000000e+000	5.000000e+000	5.000000e+000	5.000000e+000	5.000000e+000	5.000000e+000	5.000000e+000	5.000000e+000	5.000000e+000	5.000000e+000	5.000000e+000	5.000000e+000	2.247937e-002	2.247937e-002	2.247937e-002	2.247937e-002	2.247937e-002	2.247937e-002	2.247937e-002	2.247937e-002	2.247937e-002	2.247937e-002	2.247937e-002	2.247937e-002	2.247937e-002	2.247937e-002	2.247937e-002	2.247937e-002
2.000000100594128e-002	5.000000e+000	5.000000e+000	5.000000e+000	5.000000e+000	5.000000e+000	5.000000e+000	5.000000e+000	5.000000e+000	5.000000e+000	5.000000e+000	5.000000e+000	5.000000e+000	5.000000e+000	5.000000e+000	5.000000e+000	5.000000e+000	1.734096e-002	1.734096e-002	1.734096e-002	1.734096e-002	1.734096e-002	1.734096e-002	1.734096e-002	1.734096e-002	1.734096e-002	1.734096e-002	1.734096e-002	1.734096e-002	1.734096e-002	1.734096e-002	1.734096e-002	1.734096e-002
2.000000101782384e-002	5.000000e+000	5.000000e+000	5.000000e+000	5.000000e+000	5.000000e+000	5.000000e+000	5.000000e+000	5.000000e+000	5.000000e+000	5.000000e+000	5.000000e+000	5.000000e+000	5.000000e+000	5.000000e+000	5.000000e+000	5.000000e+000	1.014502e-002	1.014502e-002	1.014502e-002	1.014502e-002	1.014502e-002	1.014502e-002	1.014502e-002	1.014502e-002	1.014502e-002	1.014502e-002	1.014502e-002	1.014502e-002	1.014502e-002	1.014502e-002	1.014502e-002	1.014502e-002
2.000000104158895e-002	5.000000e+000	5.000000e+000	5.000000e+000	5.000000e+000	5.000000e+000	5.000000e+000	5.000000e+000	5.000000e+000	5.000000e+000	5.000000e+000	5.000000e+000	5.000000e+000	5.000000e+000	5.000000e+000	5.000000e+000	5.000000e+000	3.641760e-003	3.641760e-003	3.641760e-003	3.641760e-003	3.641760e-003	3.641760e-003	3.641760e-003	3.641760e-003	3.641760e-003	3.641760e-003	3.641760e-003	3.641760e-003	3.641760e-003	3.641760e-003	3.641760e-003	3.641760e-003
2.000000108911919e-002	5.000000e+000	5.000000e+000	5.000000e+000	5.000000e+000	5.000000e+000	5.000000e+000	5.000000e+000	5.000000e+000	5.000000e+000	5.000000e+000	5.000000e+000	5.000000e+000	5.000000e+000	5.000000e+000	5.000000e+000	5.000000e+000	3.368125e-004	3.368125e-004	3.368125e-004	3.368125e-004	3.368125e-004	3.368125e-004	3.368125e-004	3.368125e-004	3.368125e-004	3.368125e-004	3.368125e-004	3.368125e-004	3.368125e-004	3.368125e-004	3.368125e-004	3.368125e-004
2.000000114068855e-002	5.000000e+000	5.000000e+000	5.000000e+000	5.000000e+000	5.000000e+000	5.000000e+000	5.000000e+000	5.000000e+000	5.000000e+000	5.000000e+000	5.000000e+000	5.000000e+000	5.000000e+000	5.000000e+000	5.000000e+000	5.000000e+000	-6.052668e-005	-6.052668e-005	-6.052668e-005	-6.052668e-005	-6.052668e-005	-6.052668e-005	-6.052668e-005	-6.052668e-005	-6.052668e-005	-6.052668e-005	-6.052668e-005	-6.052668e-005	-6.052668e-005	-6.052668e-005	-6.052668e-005	-6.052668e-005
2.000000124222973e-002	5.000000e+000	5.000000e+000	5.000000e+000	5.000000e+000	5.000000e+000	5.000000e+000	5.000000e+000	5.000000e+000	5.000000e+000	5.000000e+000	5.000000e+000	5.000000e+000	5.000000e+000	5.000000e+000	5.000000e+000	5.000000e+000	7.355181e-006	7.355181e-006	7.355181e-006	7.355181e-006	7.355181e-006	7.355181e-006	7.355181e-006	7.355181e-006	7.355181e-006	7.355181e-006	7.355181e-006	7.355181e-006	7.355181e-006	7.355181e-006	7.355181e-006	7.355181e-006
2.000000144531208e-002	5.000000e+000	5.000000e+000	5.000000e+000	5.000000e+000	5.000000e+000	5.000000e+000	5.000000e+000	5.000000e+000	5.000000e+000	5.000000e+000	5.000000e+000	5.000000e+000	5.000000e+000	5.000000e+000	5.000000e+000	5.000000e+000	-1.882802e-006	-1.882802e-006	-1.882802e-006	-1.882802e-006	-1.882802e-006	-1.882802e-006	-1.882802e-006	-1.882802e-006	-1.882802e-006	-1.882802e-006	-1.882802e-006	-1.882802e-006	-1.882802e-006	-1.882802e-006	-1.882802e-006	-1.882802e-006
2.000000185147680e-002	5.000000e+000	5.000000e+000	5.000000e+000	5.000000e+000	5.000000e+000	5.000000e+000	5.000000e+000	5.000000e+000	5.000000e+000	5.000000e+000	5.000000e+000	5.000000e+000	5.000000e+000	5.000000e+000	5.000000e+000	5.000000e+000	7.089986e-007	7.089986e-007	7.089986e-007	7.089986e-007	7.089986e-007	7.089986e-007	7.089986e-007	7.089986e-007	7.089986e-007	7.089986e-007	7.089986e-007	7.089986e-007	7.089986e-007	7.089986e-007	7.089986e-007	7.089986e-007
2.000000266380622e-002	5.000000e+000	5.000000e+000	5.000000e+000	5.000000e+000	5.000000e+000	5.000000e+000	5.000000e+000	5.000000e+000	5.000000e+000	5.000000e+000	5.000000e+000	5.000000e+000	5.000000e+000	5.000000e+000	5.000000e+000	5.000000e+000	-2.919346e-007	-2.919346e-007	-2.919346e-007	-2.919346e-007	-2.919346e-007	-2.919346e-007	-2.919346e-007	-2.919346e-007	-2.919346e-007	-2.919346e-007	-2.919346e-007	-2.919346e-007	-2.919346e-007	-2.919346e-007	-2.919346e-007	-2.919346e-007
2.000000428846506e-002	5.000000e+000	5.000000e+000	5.000000e+000	5.000000e+000	5.000000e+000	5.000000e+000	5.000000e+000	5.000000e+000	5.000000e+000	5.000000e+000	5.000000e+000	5.000000e+000	5.000000e+000	5.000000e+000	5.000000e+000	5.000000e+000	1.543749e-007	1.543749e-007	1.543749e-007	1.543749e-007	1.543749e-007	1.543749e-007	1.543749e-007	1.543749e-007	1.543749e-007	1.543749e-007	1.543749e-007	1.543749e-007	1.543749e-007	1.543749e-007	1.543749e-007	1.543749e-007
2.946730036019001e-002	5.000000e+000	5.000000e+000	5.000000e+000	5.000000e+000	5.000000e+000	5.000000e+000	5.000000e+000	5.000000e+000	5.000000e+000	5.000000e+000	5.000000e+000	5.000000e+000	5.000000e+000	5.000000e+000	5.000000e+000	5.000000e+000	5.871698e-009	5.871698e-009	5.871698e-009	5.871698e-009	5.871698e-009	5.871698e-009	5.871698e-009	5.871698e-009	5.871698e-009	5.871698e-009	5.871698e-009	5.871698e-009	5.871698e-009	5.871698e-009	5.871698e-009	5.871698e-009
3.993605036018978e-002	5.000000e+000	5.000000e+000	5.000000e+000	5.000000e+000	5.000000e+000	5.000000e+000	5.000000e+000	5.000000e+000	5.000000e+000	5.000000e+000	5.000000e+000	5.000000e+000	5.000000e+000	5.000000e+000	5.000000e+000	5.000000e+000	5.914848e-009	5.914848e-009	5.914848e-009	5.914848e-009	5.914848e-009	5.914848e-009	5.914848e-009	5.914848e-009	5.914848e-009	5.914848e-009	5.914848e-009	5.914848e-009	5.914848e-009	5.914848e-009	5.914848e-009	5.914848e-009
3.996093950000000e-002	5.000000e+000	5.000000e+000	5.000000e+000	5.000000e+000	5.000000e+000	5.000000e+000	5.000000e+000	5.000000e+000	5.000000e+000	5.000000e+000	5.000000e+000	5.000000e+000	5.000000e+000	5.000000e+000	5.000000e+000	5.000000e+000	-1.871626e-007	-1.871626e-007	-1.871626e-007	-1.871626e-007	-1.871626e-007	-1.871626e-007	-1.871626e-007	-1.871626e-007	-1.871626e-007	-1.871626e-007	-1.871626e-007	-1.871626e-007	-1.871626e-007	-1.871626e-007	-1.871626e-007	-1.871626e-007
3.996095349999999e-002	5.000000e+000	5.000000e+000	5.000000e+000	5.000000e+000	5.000000e+000	5.000000e+000	5.000000e+000	5.000000e+000	5.000000e+000	5.000000e+000	5.000000e+000	5.000000e+000	5.000000e+000	5.000000e+000	5.000000e+000	5.000000e+000	3.237635e-008	3.237635e-008	3.237635e-008	3.237635e-008	3.237635e-008	3.237635e-008	3.237635e-008	3.237635e-008	3.237635e-008	3.237635e-008	3.237635e-008	3.237635e-008	3.237635e-008	3.237635e-008	3.237635e-008	3.237635e-008
